time	V(n001)	V(n002)	V(n003)
0.000000000000000e+000	2.500000e+000	2.845622e-002	9.629676e-001
2.607690141640366e-004	2.705530e+000	2.845624e-002	9.629685e-001
5.215380283280732e-004	2.906506e+000	2.845625e-002	9.629694e-001
7.823070424921098e-004	3.102927e+000	2.845626e-002	9.629703e-001
1.043076056656146e-003	3.294795e+000	2.845628e-002	9.629712e-001
1.303845070820183e-003	3.482109e+000	2.845629e-002	9.629720e-001
1.564614084984220e-003	3.664869e+000	2.845630e-002	9.629728e-001
1.825383099148255e-003	3.843074e+000	2.845631e-002	9.629735e-001
2.359310785573594e-003	4.175516e+000	2.845633e-002	9.629750e-001
2.917539945767060e-003	4.467691e+000	2.845635e-002	9.629763e-001
3.507215340728385e-003	4.710375e+000	2.845637e-002	9.629773e-001
4.115813429344286e-003	4.892654e+000	2.845638e-002	9.629781e-001
4.438276952233079e-003	4.954278e+000	2.845639e-002	9.629784e-001
4.790549612872789e-003	4.985240e+000	2.845639e-002	9.629785e-001
5.222056226114434e-003	4.982271e+000	2.845639e-002	9.629785e-001
5.661465129048210e-003	4.927489e+000	2.845638e-002	9.629783e-001
6.374091152944437e-003	4.726558e+000	2.845637e-002	9.629774e-001
7.510892002871574e-003	4.227272e+000	2.845634e-002	9.629752e-001
8.180428023547726e-003	3.839865e+000	2.845631e-002	9.629735e-001
8.738483750837576e-003	3.458668e+000	2.845629e-002	9.629718e-001
9.721530871973003e-003	2.717340e+000	2.845624e-002	9.629686e-001
1.074391965086831e-002	1.932588e+000	2.845148e-002	9.629632e-001
1.160278886449444e-002	1.295917e+000	2.845119e-002	9.629603e-001
1.170480610320106e-002	1.224816e+000	2.858419e-002	9.630138e-001
1.190884058061431e-002	1.089308e+000	2.958075e-002	9.634167e-001
1.194556058911037e-002	1.065437e+000	3.120962e-002	9.640760e-001
1.201900060610249e-002	1.018495e+000	3.833964e-002	9.669625e-001
1.202074501212811e-002	1.017387e+000	3.867332e-002	9.670975e-001
1.202423382417934e-002	1.015182e+000	3.969578e-002	9.675115e-001
1.203121144828181e-002	1.010780e+000	4.235791e-002	9.685892e-001
1.204516669648674e-002	1.001988e+000	4.921764e-002	9.713663e-001
1.204763379690802e-002	1.000436e+000	5.090882e-002	9.720510e-001
1.205256799775058e-002	9.973379e-001	5.565838e-002	9.739738e-001
1.205742506162226e-002	9.942902e-001	6.157913e-002	9.763708e-001
1.205827744126001e-002	9.937558e-001	6.294971e-002	9.769256e-001
1.205998220053551e-002	9.926875e-001	6.663770e-002	9.784186e-001
1.206228635166099e-002	9.912440e-001	7.299803e-002	9.809935e-001
1.206300968965437e-002	9.907910e-001	7.589424e-002	9.821659e-001
1.206424087170805e-002	9.900202e-001	8.277684e-002	9.849519e-001
1.206469817940655e-002	9.897340e-001	8.635661e-002	9.864009e-001
1.206517349284352e-002	9.894365e-001	9.158854e-002	9.885185e-001
1.206552383471514e-002	9.892173e-001	9.687746e-002	9.906589e-001
1.206580987061642e-002	9.890383e-001	1.028864e-001	9.930906e-001
1.206604450813886e-002	9.888915e-001	1.099086e-001	9.959320e-001
1.206628094510732e-002	9.887435e-001	1.207005e-001	1.000298e+000
1.206655943464128e-002	9.885693e-001	1.409137e-001	1.008476e+000
1.206682098934505e-002	9.884056e-001	1.718659e-001	1.020999e+000
1.206710447687159e-002	9.882283e-001	2.241757e-001	1.042165e+000
1.206738823370647e-002	9.880508e-001	2.990835e-001	1.072480e+000
1.206772805969552e-002	9.878383e-001	4.139364e-001	1.118969e+000
1.206819632797093e-002	9.875454e-001	5.935441e-001	1.191679e+000
1.207007179645999e-002	9.863729e-001	1.352628e+000	1.498998e+000
1.207128092868410e-002	9.856172e-001	1.843724e+000	1.697821e+000
1.207342962930929e-002	9.842750e-001	2.716430e+000	2.051142e+000
1.207641620853495e-002	9.824101e-001	3.929443e+000	2.542238e+000
1.207716285334136e-002	9.819441e-001	4.212009e+000	2.656649e+000
1.207767151388345e-002	9.816267e-001	4.340569e+000	2.708722e+000
1.207823115482135e-002	9.812775e-001	4.390661e+000	2.729026e+000
1.207862423852857e-002	9.810323e-001	4.394323e+000	2.730511e+000
1.220912538378615e-002	9.009302e-001	4.393598e+000	2.730217e+000
1.233962652904373e-002	8.247404e-001	4.393062e+000	2.729999e+000
1.247012767430131e-002	7.524627e-001	4.392715e+000	2.729858e+000
1.260062881955890e-002	6.840974e-001	4.392557e+000	2.729793e+000
1.273112996481648e-002	6.196442e-001	4.392588e+000	2.729805e+000
1.286163111007406e-002	5.591033e-001	4.392807e+000	2.729894e+000
1.299213225533164e-002	5.024745e-001	4.393216e+000	2.730060e+000
1.390517876308656e-002	1.658379e-001	4.393216e+000	2.730058e+000
1.428081519645976e-002	7.070624e-002	4.393216e+000	2.730058e+000
1.459894668026225e-002	2.573337e-002	4.393216e+000	2.730058e+000
1.490313826997428e-002	7.920218e-003	4.393216e+000	2.730058e+000
1.526398889771899e-002	1.889810e-002	4.393216e+000	2.730058e+000
1.572966793424793e-002	8.627854e-002	4.393216e+000	2.730058e+000
1.648412718279969e-002	3.150926e-001	4.393216e+000	2.730059e+000
1.768321075709002e-002	8.960682e-001	4.393216e+000	2.730062e+000
1.793930643648731e-002	1.036925e+000	4.393323e+000	2.730106e+000
1.819540211588459e-002	1.187758e+000	4.393394e+000	2.730135e+000
1.845149779528188e-002	1.348566e+000	4.393426e+000	2.730149e+000
1.870759347467916e-002	1.519350e+000	4.393422e+000	2.730148e+000
1.896368915407645e-002	1.700109e+000	4.393380e+000	2.730132e+000
1.921978483347373e-002	1.890843e+000	4.393300e+000	2.730100e+000
1.947588051287101e-002	2.091553e+000	4.393183e+000	2.730054e+000
1.958192299265230e-002	2.173935e+000	4.403576e+000	2.734262e+000
1.968796547243358e-002	2.256459e+000	4.409323e+000	2.736589e+000
1.979400795221487e-002	2.339126e+000	4.410426e+000	2.737036e+000
1.990005043199616e-002	2.421936e+000	4.406884e+000	2.735602e+000
2.000609291177744e-002	2.504888e+000	4.398697e+000	2.732288e+000
2.011213539155873e-002	2.587984e+000	4.385865e+000	2.727093e+000
2.021817787134001e-002	2.671222e+000	4.368389e+000	2.720018e+000
2.022162567519744e-002	2.673924e+000	4.370207e+000	2.720754e+000
2.022507347905486e-002	2.676625e+000	4.368623e+000	2.720113e+000
2.022852128291228e-002	2.679326e+000	4.363637e+000	2.718094e+000
2.023196908676971e-002	2.682027e+000	4.355249e+000	2.714698e+000
2.023541689062713e-002	2.684728e+000	4.343459e+000	2.709925e+000
2.023886469448455e-002	2.687428e+000	4.328266e+000	2.703775e+000
2.024231249834198e-002	2.690128e+000	4.309671e+000	2.696248e+000
2.024260041603678e-002	2.690354e+000	4.309333e+000	2.696110e+000
2.024288833373158e-002	2.690579e+000	4.305709e+000	2.694643e+000
2.024317625142638e-002	2.690805e+000	4.298800e+000	2.691847e+000
2.024346416912118e-002	2.691030e+000	4.288606e+000	2.687722e+000
2.024375208681598e-002	2.691255e+000	4.275126e+000	2.682268e+000
2.024404000451079e-002	2.691481e+000	4.258361e+000	2.675484e+000
2.024432792220559e-002	2.691706e+000	4.238310e+000	2.667372e+000
2.024459595842879e-002	2.691916e+000	4.200397e+000	2.652033e+000
2.024487748709627e-002	2.692137e+000	4.139961e+000	2.627577e+000
2.024517220902339e-002	2.692368e+000	4.053157e+000	2.592445e+000
2.024553953909425e-002	2.692655e+000	3.921239e+000	2.539045e+000
2.024654547757860e-002	2.693443e+000	3.520182e+000	2.376679e+000
2.024804857853882e-002	2.694620e+000	2.909814e+000	2.129568e+000
2.024951401646266e-002	2.695767e+000	2.314618e+000	1.888599e+000
2.025228286481889e-002	2.697935e+000	1.190037e+000	1.433305e+000
2.025455872408954e-002	2.699717e+000	2.679484e-001	1.059990e+000
2.025499338828107e-002	2.700057e+000	1.058456e-001	9.943439e-001
2.025517624706691e-002	2.700200e+000	5.787630e-002	9.749041e-001
2.025531169193017e-002	2.700306e+000	4.015700e-002	9.677165e-001
2.025539640666748e-002	2.700373e+000	3.510309e-002	9.656658e-001
2.025550587853165e-002	2.700459e+000	3.188877e-002	9.643614e-001
2.025560556193489e-002	2.700536e+000	3.032940e-002	9.637286e-001
2.025575601532832e-002	2.700654e+000	2.923973e-002	9.632864e-001
2.025591711055493e-002	2.700780e+000	2.875091e-002	9.630880e-001
2.025615006566032e-002	2.700963e+000	2.853406e-002	9.630001e-001
2.025644193124264e-002	2.701191e+000	2.846871e-002	9.629736e-001
2.052669563551910e-002	2.912846e+000	2.846099e-002	9.629713e-001
2.079694933979555e-002	3.118172e+000	2.845525e-002	9.629699e-001
2.106720304407200e-002	3.317171e+000	2.845150e-002	9.629692e-001
2.133745674834846e-002	3.509841e+000	2.844973e-002	9.629693e-001
2.160771045262491e-002	3.696183e+000	2.844994e-002	9.629702e-001
2.187796415690136e-002	3.876197e+000	2.845214e-002	9.629719e-001
2.214821786117782e-002	4.049883e+000	2.845633e-002	9.629744e-001
2.276619886104108e-002	4.395133e+000	2.845635e-002	9.629759e-001
2.325798394286551e-002	4.617909e+000	2.845636e-002	9.629769e-001
2.390800697873743e-002	4.840350e+000	2.845638e-002	9.629779e-001
2.428291821317181e-002	4.929664e+000	2.845638e-002	9.629783e-001
2.460156184168803e-002	4.974554e+000	2.845639e-002	9.629785e-001
2.490372187407590e-002	4.992146e+000	2.845639e-002	9.629785e-001
2.526420598128963e-002	4.981095e+000	2.845639e-002	9.629785e-001
2.573002094625107e-002	4.913647e+000	2.845638e-002	9.629782e-001
2.648469619386645e-002	4.684685e+000	2.845637e-002	9.629772e-001
2.768409911203210e-002	4.129678e+000	2.845633e-002	9.629747e-001
2.831756870560193e-002	3.746540e+000	2.845631e-002	9.629731e-001
2.905277208643183e-002	3.225868e+000	2.845627e-002	9.629708e-001
3.125547810649224e-002	1.542075e+000	2.845408e-002	9.629599e-001
3.167002273460898e-002	1.248286e+000	2.846503e-002	9.629657e-001
3.173911350596178e-002	1.201361e+000	2.853061e-002	9.629920e-001
3.187729504866736e-002	1.109737e+000	2.898240e-002	9.631745e-001
3.191184043434376e-002	1.087193e+000	2.964778e-002	9.634438e-001
3.198093120569655e-002	1.042685e+000	3.239530e-002	9.645560e-001
3.198740846551088e-002	1.038550e+000	3.299928e-002	9.648005e-001
3.199604481192998e-002	1.033056e+000	3.413618e-002	9.652607e-001
3.201331750476817e-002	1.022104e+000	3.776672e-002	9.667305e-001
3.204010350014638e-002	1.005172e+000	4.595808e-002	9.700467e-001
3.204275958248794e-002	1.003501e+000	4.748913e-002	9.706665e-001
3.204630102561003e-002	1.001275e+000	5.004013e-002	9.716993e-001
3.205338391185419e-002	9.968254e-001	5.629199e-002	9.742303e-001
3.205514075899019e-002	9.957229e-001	5.837283e-002	9.750727e-001
3.205865445326220e-002	9.935195e-001	6.370519e-002	9.772315e-001
3.205953287683021e-002	9.929689e-001	6.541371e-002	9.779232e-001
3.206172893575021e-002	9.915931e-001	7.089735e-002	9.801431e-001
3.206260735931821e-002	9.910430e-001	7.411350e-002	9.814450e-001
3.206366601869967e-002	9.903801e-001	7.906874e-002	9.834509e-001
3.206447648021363e-002	9.898728e-001	8.400825e-002	9.854504e-001
3.206500590137850e-002	9.895414e-001	8.922689e-002	9.875627e-001
3.206540083383884e-002	9.892942e-001	9.457289e-002	9.897263e-001
3.206573516927327e-002	9.890850e-001	1.006887e-001	9.922013e-001
3.206595381440739e-002	9.889482e-001	1.063961e-001	9.945108e-001
3.206621584891600e-002	9.887843e-001	1.165214e-001	9.986076e-001
3.206646900799026e-002	9.886259e-001	1.320539e-001	1.004892e+000
3.206675197827223e-002	9.884489e-001	1.603196e-001	1.016327e+000
3.206701604697636e-002	9.882836e-001	2.024204e-001	1.033362e+000
3.206730694976374e-002	9.881017e-001	2.711498e-001	1.061175e+000
3.206761459938289e-002	9.879093e-001	3.678842e-001	1.100327e+000
3.206802383604605e-002	9.876533e-001	5.199792e-001	1.161897e+000
3.206854005787907e-002	9.873305e-001	7.252750e-001	1.245010e+000
3.207075087138386e-002	9.859484e-001	1.622544e+000	1.608275e+000
3.207252146281823e-002	9.848423e-001	2.341679e+000	1.899421e+000
3.207606264568697e-002	9.826308e-001	3.779948e+000	2.481714e+000
3.207694794140415e-002	9.820782e-001	4.124960e+000	2.621402e+000
3.207756660882499e-002	9.816921e-001	4.315224e+000	2.698454e+000
3.207800720014314e-002	9.814172e-001	4.380704e+000	2.724987e+000
3.207850911948655e-002	9.811041e-001	4.393892e+000	2.730336e+000
3.217651749672011e-002	9.207312e-001	4.393448e+000	2.730156e+000
3.227452587395368e-002	8.624743e-001	4.393119e+000	2.730022e+000
3.237253425118724e-002	8.063334e-001	4.392907e+000	2.729936e+000
3.247054262842081e-002	7.523087e-001	4.392810e+000	2.729896e+000
3.256855100565437e-002	7.003999e-001	4.392829e+000	2.729904e+000
3.266655938288793e-002	6.506073e-001	4.392964e+000	2.729958e+000
3.276456776012150e-002	6.029307e-001	4.393216e+000	2.730060e+000
3.344975731898115e-002	3.089933e-001	4.393216e+000	2.730059e+000
3.394688476838158e-002	1.460978e-001	4.393216e+000	2.730058e+000
3.431185961434133e-002	6.534109e-002	4.393216e+000	2.730058e+000
3.463753887100209e-002	2.268734e-002	4.393216e+000	2.730058e+000
3.496331933794915e-002	6.651793e-003	4.393216e+000	2.730058e+000
3.528636596755625e-002	1.960221e-002	4.393216e+000	2.730058e+000
3.576605239699968e-002	9.411474e-002	4.393216e+000	2.730058e+000
3.654274448718853e-002	3.383508e-001	4.393216e+000	2.730059e+000
3.777457280099712e-002	9.482759e-001	4.393216e+000	2.730062e+000
3.803514732738429e-002	1.096069e+000	4.393288e+000	2.730092e+000
3.829572185377147e-002	1.253529e+000	4.393335e+000	2.730112e+000
3.855629638015864e-002	1.420655e+000	4.393357e+000	2.730121e+000
3.881687090654581e-002	1.597446e+000	4.393354e+000	2.730121e+000
3.907744543293298e-002	1.783903e+000	4.393325e+000	2.730110e+000
3.933801995932016e-002	1.980027e+000	4.393271e+000	2.730089e+000
3.959859448570733e-002	2.185816e+000	4.393192e+000	2.730058e+000
3.984162519125428e-002	2.375770e+000	4.392403e+000	2.729739e+000
4.016566613198355e-002	2.630032e+000	2.503232e+000	1.964909e+000
4.021482252756494e-002	2.668589e+000	6.832795e-001	1.228082e+000
4.023567705503627e-002	2.684930e+000	3.205253e-002	9.644243e-001
4.024857322174744e-002	2.695030e+000	3.189505e-002	9.643608e-001
4.025871448647209e-002	2.702970e+000	3.126797e-002	9.641067e-001
4.026658549439265e-002	2.709131e+000	3.094398e-002	9.639757e-001
4.027337178389016e-002	2.714442e+000	3.028200e-002	9.637076e-001
4.027840925802419e-002	2.718383e+000	3.009463e-002	9.636320e-001
4.028189619315132e-002	2.721112e+000	2.934260e-002	9.633273e-001
4.028451936347784e-002	2.723164e+000	2.910903e-002	9.632329e-001
4.028842366807224e-002	2.726218e+000	2.855295e-002	9.630077e-001
4.029009866438907e-002	2.727528e+000	2.857082e-002	9.630150e-001
4.029163041246590e-002	2.728726e+000	2.843188e-002	9.629587e-001
4.029319352059065e-002	2.729948e+000	2.851432e-002	9.629921e-001
4.029495468174171e-002	2.731325e+000	2.842978e-002	9.629579e-001
4.029716463269933e-002	2.733054e+000	2.848085e-002	9.629786e-001
4.052143799374823e-002	2.908072e+000	2.845615e-002	9.629694e-001
4.074571135479713e-002	3.079035e+000	2.843839e-002	9.629629e-001
4.096998471584604e-002	3.245940e+000	2.842756e-002	9.629592e-001
4.119425807689493e-002	3.408790e+000	2.842367e-002	9.629584e-001
4.141853143794384e-002	3.567583e+000	2.842671e-002	9.629603e-001
4.164280479899274e-002	3.722320e+000	2.843668e-002	9.629650e-001
4.186707816004164e-002	3.873000e+000	2.845358e-002	9.629725e-001
4.237980776169179e-002	4.188766e+000	2.845702e-002	9.629753e-001
4.289277757467808e-002	4.458885e+000	2.845521e-002	9.629758e-001
4.341520596671170e-002	4.678375e+000	2.845168e-002	9.629753e-001
4.405283399459172e-002	4.877573e+000	2.845085e-002	9.629758e-001
4.439102559955803e-002	4.947382e+000	2.845194e-002	9.629766e-001
4.473337663800309e-002	4.981404e+000	2.845105e-002	9.629764e-001
4.520070521095199e-002	4.982792e+000	2.844913e-002	9.629756e-001
4.562672846968328e-002	4.934035e+000	2.844869e-002	9.629752e-001
4.631797421791675e-002	4.746766e+000	2.844927e-002	9.629746e-001
4.742262197393475e-002	4.274745e+000	2.845477e-002	9.629748e-001
4.811869898127753e-002	3.879901e+000	2.845571e-002	9.629734e-001
4.865627478504311e-002	3.517408e+000	2.845322e-002	9.629709e-001
4.916013290868614e-002	3.147723e+000	2.845118e-002	9.629684e-001
5.074984166530727e-002	1.928554e+000	2.844828e-002	9.629619e-001
5.161976135749406e-002	1.284162e+000	2.839248e-002	9.629292e-001
5.171535632346161e-002	1.217618e+000	2.853442e-002	9.629883e-001
5.190654625539670e-002	1.090791e+000	2.954021e-002	9.634003e-001
5.194494393192201e-002	1.065843e+000	3.130649e-002	9.641153e-001
5.202173928497264e-002	1.016763e+000	3.907275e-002	9.672592e-001
5.202344751227227e-002	1.015679e+000	3.942412e-002	9.674015e-001
5.202686396687155e-002	1.013521e+000	4.051579e-002	9.678434e-001
5.203369687607010e-002	1.009212e+000	4.338065e-002	9.690033e-001
5.204736269446719e-002	1.000607e+000	5.080634e-002	9.720095e-001
5.204965154865127e-002	9.991687e-001	5.256218e-002	9.727204e-001
5.205422925701943e-002	9.962947e-001	5.713054e-002	9.745698e-001
5.205537368411148e-002	9.955766e-001	5.853057e-002	9.751366e-001
5.205766253829556e-002	9.941415e-001	6.222718e-002	9.766331e-001
5.206100957768386e-002	9.920437e-001	6.899622e-002	9.793735e-001
5.206155275259360e-002	9.917034e-001	7.045986e-002	9.799660e-001
5.206263910241309e-002	9.910231e-001	7.425439e-002	9.815021e-001
5.206347285415532e-002	9.905010e-001	7.795967e-002	9.830020e-001
5.206419713452667e-002	9.900476e-001	8.216571e-002	9.847046e-001
5.206461880491581e-002	9.897836e-001	8.542326e-002	9.860231e-001
5.206508146972709e-002	9.894941e-001	9.021505e-002	9.879625e-001
5.206546193865233e-002	9.892560e-001	9.556787e-002	9.901289e-001
5.206577193548306e-002	9.890620e-001	1.015779e-001	9.925611e-001
5.206599767107441e-002	9.889207e-001	1.076736e-001	9.950277e-001
5.206620820110611e-002	9.887890e-001	1.161266e-001	9.984478e-001
5.206648766303731e-002	9.886142e-001	1.334697e-001	1.005464e+000
5.206674189712700e-002	9.884552e-001	1.591315e-001	1.015847e+000
5.206702696116660e-002	9.882768e-001	2.047865e-001	1.034319e+000
5.206730111245991e-002	9.881054e-001	2.696895e-001	1.060584e+000
5.206762350651439e-002	9.879037e-001	3.714050e-001	1.101753e+000
5.206802063831350e-002	9.876553e-001	5.190002e-001	1.161501e+000
5.206854859542963e-002	9.873252e-001	7.291169e-001	1.246565e+000
5.207075611088805e-002	9.859452e-001	1.625045e+000	1.609287e+000
5.207255762973397e-002	9.848197e-001	2.356742e+000	1.905520e+000
5.207616066742581e-002	9.825697e-001	3.820133e+000	2.497983e+000
5.207706142684877e-002	9.820074e-001	4.166614e+000	2.638268e+000
5.207763920638248e-002	9.816468e-001	4.328676e+000	2.703905e+000
5.207813095787280e-002	9.813401e-001	4.386171e+000	2.727204e+000
5.207862736908726e-002	9.810303e-001	4.394015e+000	2.730386e+000
5.220477780420819e-002	9.035637e-001	4.393492e+000	2.730174e+000
5.233092823932910e-002	8.297335e-001	4.393105e+000	2.730017e+000
5.245707867445003e-002	7.595399e-001	4.392854e+000	2.729915e+000
5.258322910957095e-002	6.929827e-001	4.392740e+000	2.729868e+000
5.270937954469188e-002	6.300620e-001	4.392762e+000	2.729877e+000
5.283552997981279e-002	5.707779e-001	4.392921e+000	2.729941e+000
5.296168041493372e-002	5.151302e-001	4.393215e+000	2.730060e+000
5.384434246840461e-002	1.823979e-001	4.393215e+000	2.730058e+000
5.423565799091301e-002	7.890666e-002	4.393215e+000	2.730058e+000
5.454276194354482e-002	3.289362e-002	4.393215e+000	2.730058e+000
5.492383435260381e-002	8.880422e-003	4.393215e+000	2.730058e+000
5.527168607366306e-002	1.913386e-002	4.393215e+000	2.730058e+000
5.574218427660875e-002	8.893578e-002	4.393215e+000	2.730058e+000
5.650429852265856e-002	3.230133e-001	4.393215e+000	2.730059e+000
5.771468516083769e-002	9.138996e-001	4.393215e+000	2.730062e+000
5.796998860358613e-002	1.055584e+000	4.393323e+000	2.730106e+000
5.822529204633457e-002	1.207075e+000	4.393391e+000	2.730134e+000
5.848059548908301e-002	1.368372e+000	4.393418e+000	2.730146e+000
5.873589893183146e-002	1.539475e+000	4.393406e+000	2.730142e+000
5.899120237457990e-002	1.720384e+000	4.393354e+000	2.730121e+000
5.924650581732834e-002	1.911098e+000	4.393262e+000	2.730085e+000
5.950180926007678e-002	2.111619e+000	4.393129e+000	2.730032e+000
5.960347232199132e-002	2.190686e+000	4.404847e+000	2.734776e+000
5.970513538390587e-002	2.269869e+000	4.411667e+000	2.737538e+000
